
Circuit: ** sch_path: /home/oe23ranan/mpw/saradcspr2022/tb_my_dynamic_comp.sch

Scale set
Doing analysis at TEMP = 27.000000 and TNOM = 27.000000

Warning: include: has no value, DC 0 assumed

Initial Transient Solution
--------------------------

Node                                   Voltage
----                                   -------
x1.net1                               0.781182
clk                                          0
x1.net3                                 1.5511
inn                                      0.925
x1.net2                                1.56665
inp                                      0.875
net1                                       1.8
net2                                       1.8
vdd                                        1.8
outp                               5.18409e-06
outn                               5.18409e-06
sky130_fd_pr__esd_nfet_05v0_nvt.pm3               0
                                             0
v4#branch                         -1.69192e-08
v3#branch                                    0
v2#branch                                    0
v1#branch                                    0


No. of Data Rows : 3913
     ** sch_path: /home/oe23ranan/mpw/saradcspr2022/tb_my_dynamic_comp.sch
     Transient Analysis  Thu May  5 10:27:21  2022
--------------------------------------------------------------------------------
Index   time            inp             inn             outp            
--------------------------------------------------------------------------------
0	0.000000e+00	8.750000e-01	9.250000e-01	5.184087e-06	
1	1.000000e-11	8.750005e-01	9.249995e-01	5.183904e-06	
2	2.000000e-11	8.750010e-01	9.249990e-01	5.183935e-06	
3	4.000000e-11	8.750020e-01	9.249980e-01	5.184015e-06	
4	8.000000e-11	8.750040e-01	9.249960e-01	5.184082e-06	
5	1.600000e-10	8.750080e-01	9.249920e-01	5.184089e-06	
6	3.200000e-10	8.750160e-01	9.249840e-01	5.184091e-06	
7	6.400000e-10	8.750320e-01	9.249680e-01	5.184088e-06	
8	1.000000e-09	8.750500e-01	9.249500e-01	5.184091e-06	
9	1.006000e-09	8.750503e-01	9.249497e-01	2.768514e-03	
10	1.018000e-09	8.750509e-01	9.249491e-01	2.638180e-03	
11	1.042000e-09	8.750521e-01	9.249479e-01	1.618757e-03	
12	1.060000e-09	8.750530e-01	9.249470e-01	-8.78096e-04	
13	1.064660e-09	8.750532e-01	9.249468e-01	-3.09617e-03	
14	1.073980e-09	8.750537e-01	9.249463e-01	-5.03499e-03	
15	1.092621e-09	8.750546e-01	9.249454e-01	-5.43564e-03	
16	1.129902e-09	8.750565e-01	9.249435e-01	-2.07509e-03	
17	1.204463e-09	8.750602e-01	9.249398e-01	8.675118e-03	
18	1.281118e-09	8.750641e-01	9.249359e-01	-2.87093e-03	
19	1.364208e-09	8.750682e-01	9.249318e-01	2.812292e-03	
20	1.461762e-09	8.750731e-01	9.249269e-01	-2.52255e-03	
21	1.571375e-09	8.750786e-01	9.249214e-01	2.360019e-03	
22	1.790601e-09	8.750895e-01	9.249105e-01	-2.25599e-03	
23	2.041399e-09	8.751021e-01	9.248979e-01	2.211082e-03	
24	2.497197e-09	8.751249e-01	9.248751e-01	-2.15776e-03	
25	3.184979e-09	8.751592e-01	9.248408e-01	2.154752e-03	
26	4.184979e-09	8.752092e-01	9.247908e-01	-2.12171e-03	
27	5.184979e-09	8.752592e-01	9.247408e-01	2.125414e-03	
28	6.060000e-09	8.753030e-01	9.246970e-01	-2.09143e-03	
29	6.066000e-09	8.753033e-01	9.246967e-01	-5.48171e-04	
30	6.078000e-09	8.753039e-01	9.246961e-01	-1.10298e-03	
31	6.102000e-09	8.753051e-01	9.246949e-01	-6.84216e-04	
32	6.120000e-09	8.753060e-01	9.246940e-01	1.736442e-03	
33	6.124800e-09	8.753062e-01	9.246938e-01	2.766388e-03	
34	6.134400e-09	8.753067e-01	9.246933e-01	2.364192e-03	
35	6.153600e-09	8.753077e-01	9.246923e-01	1.691221e-04	
36	6.192000e-09	8.753096e-01	9.246904e-01	7.465371e-05	
37	6.231272e-09	8.753116e-01	9.246884e-01	-1.31835e-03	
38	6.274020e-09	8.753137e-01	9.246863e-01	-1.08804e-04	
39	6.342001e-09	8.753171e-01	9.246829e-01	2.912698e-04	
40	6.409313e-09	8.753205e-01	9.246795e-01	-1.34246e-04	
41	6.543935e-09	8.753272e-01	9.246728e-01	1.426222e-04	
42	6.813180e-09	8.753407e-01	9.246593e-01	-1.28072e-04	
43	7.351670e-09	8.753676e-01	9.246324e-01	1.380517e-04	
44	8.351670e-09	8.754176e-01	9.245824e-01	-1.26935e-04	
45	9.351670e-09	8.754676e-01	9.245324e-01	1.368436e-04	
46	1.035167e-08	8.755176e-01	9.244824e-01	-1.25884e-04	
47	1.100000e-08	8.755500e-01	9.244500e-01	1.354587e-04	
48	1.100600e-08	8.755503e-01	9.244497e-01	2.747124e-03	
49	1.101800e-08	8.755509e-01	9.244491e-01	2.586967e-03	
50	1.104200e-08	8.755521e-01	9.244479e-01	1.330292e-03	
51	1.106000e-08	8.755530e-01	9.244470e-01	-2.38535e-03	
52	1.106480e-08	8.755532e-01	9.244468e-01	-4.30717e-03	
53	1.107440e-08	8.755537e-01	9.244463e-01	-5.43306e-03	
54	1.109360e-08	8.755547e-01	9.244453e-01	-5.88653e-03	

Index   time            inp             inn             outp            
--------------------------------------------------------------------------------
55	1.113200e-08	8.755566e-01	9.244434e-01	1.158284e-03	
56	1.120880e-08	8.755604e-01	9.244396e-01	7.384552e-03	
57	1.128898e-08	8.755644e-01	9.244356e-01	-2.94839e-03	
58	1.137208e-08	8.755686e-01	9.244314e-01	2.773364e-03	
59	1.147511e-08	8.755738e-01	9.244262e-01	-2.50580e-03	
60	1.158954e-08	8.755795e-01	9.244205e-01	2.354865e-03	
61	1.181839e-08	8.755909e-01	9.244091e-01	-2.25605e-03	
62	1.208663e-08	8.756043e-01	9.243957e-01	2.215625e-03	
63	1.256804e-08	8.756284e-01	9.243716e-01	-2.16444e-03	
64	1.330515e-08	8.756653e-01	9.243347e-01	2.162792e-03	
65	1.430515e-08	8.757153e-01	9.242847e-01	-2.12986e-03	
66	1.530515e-08	8.757653e-01	9.242347e-01	2.133469e-03	
67	1.606000e-08	8.758030e-01	9.241970e-01	-2.09705e-03	
68	1.606600e-08	8.758033e-01	9.241967e-01	-5.50783e-04	
69	1.607800e-08	8.758039e-01	9.241961e-01	-1.09770e-03	
70	1.610200e-08	8.758051e-01	9.241949e-01	-6.88192e-04	
71	1.612000e-08	8.758060e-01	9.241940e-01	1.739045e-03	
72	1.612480e-08	8.758062e-01	9.241938e-01	2.767555e-03	
73	1.613440e-08	8.758067e-01	9.241933e-01	2.364892e-03	
74	1.615360e-08	8.758077e-01	9.241923e-01	1.687774e-04	
75	1.619200e-08	8.758096e-01	9.241904e-01	7.332432e-05	
76	1.623126e-08	8.758116e-01	9.241884e-01	-1.31794e-03	
77	1.627400e-08	8.758137e-01	9.241863e-01	-1.08616e-04	
78	1.634200e-08	8.758171e-01	9.241829e-01	2.911706e-04	
79	1.640931e-08	8.758205e-01	9.241795e-01	-1.33979e-04	
80	1.654392e-08	8.758272e-01	9.241728e-01	1.423640e-04	
81	1.681315e-08	8.758407e-01	9.241593e-01	-1.27805e-04	
82	1.735162e-08	8.758676e-01	9.241324e-01	1.377912e-04	
83	1.835162e-08	8.759176e-01	9.240824e-01	-1.26674e-04	
84	1.935162e-08	8.759676e-01	9.240324e-01	1.365843e-04	
85	2.035162e-08	8.760176e-01	9.239824e-01	-1.25625e-04	
86	2.100000e-08	8.760500e-01	9.239500e-01	1.352021e-04	
87	2.100600e-08	8.760503e-01	9.239497e-01	2.747135e-03	
88	2.101800e-08	8.760509e-01	9.239491e-01	2.586974e-03	
89	2.104200e-08	8.760521e-01	9.239479e-01	1.329921e-03	
90	2.106000e-08	8.760530e-01	9.239470e-01	-2.41095e-03	
91	2.106480e-08	8.760532e-01	9.239468e-01	-4.33937e-03	
92	2.107440e-08	8.760537e-01	9.239463e-01	-5.47214e-03	
93	2.109360e-08	8.760547e-01	9.239453e-01	-5.93450e-03	
94	2.113200e-08	8.760566e-01	9.239434e-01	1.225659e-03	
95	2.120880e-08	8.760604e-01	9.239396e-01	7.651687e-03	
96	2.128940e-08	8.760645e-01	9.239355e-01	-3.08662e-03	
97	2.137252e-08	8.760686e-01	9.239314e-01	2.900724e-03	
98	2.147548e-08	8.760738e-01	9.239262e-01	-2.62182e-03	
99	2.158986e-08	8.760795e-01	9.239205e-01	2.465141e-03	
100	2.181861e-08	8.760909e-01	9.239091e-01	-2.36231e-03	
101	2.208529e-08	8.761043e-01	9.238957e-01	2.319903e-03	
102	2.256429e-08	8.761282e-01	9.238718e-01	-2.26655e-03	
103	2.329495e-08	8.761647e-01	9.238353e-01	2.264579e-03	
104	2.429495e-08	8.762147e-01	9.237853e-01	-2.23042e-03	
105	2.529495e-08	8.762647e-01	9.237353e-01	2.234069e-03	
106	2.606000e-08	8.763030e-01	9.236970e-01	-2.19655e-03	
107	2.606600e-08	8.763033e-01	9.236967e-01	-5.67512e-04	
108	2.607800e-08	8.763039e-01	9.236961e-01	-1.08747e-03	
109	2.610200e-08	8.763051e-01	9.236949e-01	-6.97114e-04	
110	2.612000e-08	8.763060e-01	9.236940e-01	1.746063e-03	
111	2.612480e-08	8.763062e-01	9.236938e-01	2.769338e-03	
112	2.613440e-08	8.763067e-01	9.236933e-01	2.365224e-03	

Index   time            inp             inn             outp            
--------------------------------------------------------------------------------
113	2.615360e-08	8.763077e-01	9.236923e-01	1.686991e-04	
114	2.619200e-08	8.763096e-01	9.236904e-01	7.154115e-05	
115	2.623125e-08	8.763116e-01	9.236884e-01	-1.31736e-03	
116	2.627398e-08	8.763137e-01	9.236863e-01	-1.08415e-04	
117	2.634199e-08	8.763171e-01	9.236829e-01	2.910162e-04	
118	2.640930e-08	8.763205e-01	9.236795e-01	-1.33678e-04	
119	2.654391e-08	8.763272e-01	9.236728e-01	1.420721e-04	
120	2.681312e-08	8.763407e-01	9.236593e-01	-1.27505e-04	
121	2.735155e-08	8.763676e-01	9.236324e-01	1.374976e-04	
122	2.835155e-08	8.764176e-01	9.235824e-01	-1.26380e-04	
123	2.935155e-08	8.764676e-01	9.235324e-01	1.362923e-04	
124	3.035155e-08	8.765176e-01	9.234824e-01	-1.25334e-04	
125	3.100000e-08	8.765500e-01	9.234500e-01	1.349131e-04	
126	3.100600e-08	8.765503e-01	9.234497e-01	2.747144e-03	
127	3.101800e-08	8.765509e-01	9.234491e-01	2.586980e-03	
128	3.104200e-08	8.765521e-01	9.234479e-01	1.329515e-03	
129	3.106000e-08	8.765530e-01	9.234470e-01	-2.43670e-03	
130	3.106480e-08	8.765532e-01	9.234468e-01	-4.37176e-03	
131	3.107440e-08	8.765537e-01	9.234463e-01	-5.51172e-03	
132	3.109360e-08	8.765547e-01	9.234453e-01	-5.98279e-03	
133	3.113200e-08	8.765566e-01	9.234434e-01	1.297149e-03	
134	3.120880e-08	8.765604e-01	9.234396e-01	7.929518e-03	
135	3.128984e-08	8.765645e-01	9.234355e-01	-3.22924e-03	
136	3.137298e-08	8.765686e-01	9.234314e-01	3.032089e-03	
137	3.147591e-08	8.765738e-01	9.234262e-01	-2.74153e-03	
138	3.159027e-08	8.765795e-01	9.234205e-01	2.579038e-03	
139	3.181898e-08	8.765909e-01	9.234091e-01	-2.47206e-03	
140	3.208425e-08	8.766042e-01	9.233958e-01	2.427649e-03	
141	3.256104e-08	8.766281e-01	9.233719e-01	-2.37205e-03	
142	3.328571e-08	8.766643e-01	9.233357e-01	2.369762e-03	
143	3.428571e-08	8.767143e-01	9.232857e-01	-2.33432e-03	
144	3.528571e-08	8.767643e-01	9.232357e-01	2.338026e-03	
145	3.606000e-08	8.768030e-01	9.231970e-01	-2.29933e-03	
146	3.606600e-08	8.768033e-01	9.231967e-01	-5.84778e-04	
147	3.607800e-08	8.768039e-01	9.231961e-01	-1.07689e-03	
148	3.610200e-08	8.768051e-01	9.231949e-01	-7.06337e-04	
149	3.612000e-08	8.768060e-01	9.231940e-01	1.753306e-03	
150	3.612480e-08	8.768062e-01	9.231938e-01	2.771170e-03	
151	3.613440e-08	8.768067e-01	9.231933e-01	2.365533e-03	
152	3.615360e-08	8.768077e-01	9.231923e-01	1.686358e-04	
153	3.619200e-08	8.768096e-01	9.231904e-01	6.972816e-05	
154	3.623124e-08	8.768116e-01	9.231884e-01	-1.31676e-03	
155	3.627396e-08	8.768137e-01	9.231863e-01	-1.08210e-04	
156	3.634199e-08	8.768171e-01	9.231829e-01	2.908642e-04	
157	3.640929e-08	8.768205e-01	9.231795e-01	-1.33378e-04	
158	3.654389e-08	8.768272e-01	9.231728e-01	1.417819e-04	
159	3.681309e-08	8.768407e-01	9.231593e-01	-1.27206e-04	
160	3.735148e-08	8.768676e-01	9.231324e-01	1.372056e-04	
161	3.835148e-08	8.769176e-01	9.230824e-01	-1.26088e-04	
162	3.935148e-08	8.769676e-01	9.230324e-01	1.360017e-04	
163	4.035148e-08	8.770176e-01	9.229824e-01	-1.25044e-04	
164	4.100000e-08	8.770500e-01	9.229500e-01	1.346256e-04	
165	4.100600e-08	8.770503e-01	9.229497e-01	2.747154e-03	
166	4.101800e-08	8.770509e-01	9.229491e-01	2.586987e-03	
167	4.104200e-08	8.770521e-01	9.229479e-01	1.329077e-03	
168	4.106000e-08	8.770530e-01	9.229470e-01	-2.46258e-03	
169	4.106480e-08	8.770532e-01	9.229468e-01	-4.40432e-03	
170	4.107440e-08	8.770537e-01	9.229463e-01	-5.55181e-03	

Index   time            inp             inn             outp            
--------------------------------------------------------------------------------
171	4.109360e-08	8.770547e-01	9.229453e-01	-6.03139e-03	
172	4.113200e-08	8.770566e-01	9.229434e-01	1.372993e-03	
173	4.120880e-08	8.770604e-01	9.229396e-01	8.219750e-03	
174	4.129030e-08	8.770645e-01	9.229355e-01	-3.37557e-03	
175	4.137346e-08	8.770687e-01	9.229313e-01	3.167118e-03	
176	4.147639e-08	8.770738e-01	9.229262e-01	-2.86465e-03	
177	4.159077e-08	8.770795e-01	9.229205e-01	2.696288e-03	
178	4.181951e-08	8.770910e-01	9.229090e-01	-2.58502e-03	
179	4.208354e-08	8.771042e-01	9.228958e-01	2.538609e-03	
180	4.255833e-08	8.771279e-01	9.228721e-01	-2.48066e-03	
181	4.327751e-08	8.771639e-01	9.228361e-01	2.478090e-03	
182	4.427751e-08	8.772139e-01	9.227861e-01	-2.44129e-03	
183	4.527751e-08	8.772639e-01	9.227361e-01	2.445088e-03	
184	4.606000e-08	8.773030e-01	9.226970e-01	-2.40514e-03	
185	4.606600e-08	8.773033e-01	9.226967e-01	-6.02563e-04	
186	4.607800e-08	8.773039e-01	9.226961e-01	-1.06599e-03	
187	4.610200e-08	8.773051e-01	9.226949e-01	-7.15842e-04	
188	4.612000e-08	8.773060e-01	9.226940e-01	1.760762e-03	
189	4.612480e-08	8.773062e-01	9.226938e-01	2.773050e-03	
190	4.613440e-08	8.773067e-01	9.226933e-01	2.365820e-03	
191	4.615360e-08	8.773077e-01	9.226923e-01	1.685863e-04	
192	4.619200e-08	8.773096e-01	9.226904e-01	6.788659e-05	
193	4.623123e-08	8.773116e-01	9.226884e-01	-1.31614e-03	
194	4.627394e-08	8.773137e-01	9.226863e-01	-1.08002e-04	
195	4.634199e-08	8.773171e-01	9.226829e-01	2.907143e-04	
196	4.640928e-08	8.773205e-01	9.226795e-01	-1.33079e-04	
197	4.654387e-08	8.773272e-01	9.226728e-01	1.414931e-04	
198	4.681305e-08	8.773407e-01	9.226593e-01	-1.26908e-04	
199	4.735141e-08	8.773676e-01	9.226324e-01	1.369147e-04	
200	4.835141e-08	8.774176e-01	9.225824e-01	-1.25797e-04	
201	4.935141e-08	8.774676e-01	9.225324e-01	1.357123e-04	
202	5.035141e-08	8.775176e-01	9.224824e-01	-1.24756e-04	
203	5.100000e-08	8.775500e-01	9.224500e-01	1.343392e-04	
204	5.100600e-08	8.775503e-01	9.224497e-01	2.747165e-03	
205	5.101800e-08	8.775509e-01	9.224491e-01	2.586993e-03	
206	5.104200e-08	8.775521e-01	9.224479e-01	1.328605e-03	
207	5.106000e-08	8.775530e-01	9.224470e-01	-2.48859e-03	
208	5.106480e-08	8.775532e-01	9.224468e-01	-4.43706e-03	
209	5.107440e-08	8.775537e-01	9.224463e-01	-5.59241e-03	
210	5.109360e-08	8.775547e-01	9.224453e-01	-6.08028e-03	
211	5.113200e-08	8.775566e-01	9.224434e-01	1.453436e-03	
212	5.120880e-08	8.775604e-01	9.224396e-01	8.519383e-03	
213	5.129079e-08	8.775645e-01	9.224355e-01	-3.52640e-03	
214	5.137396e-08	8.775687e-01	9.224313e-01	3.306115e-03	
215	5.147693e-08	8.775738e-01	9.224262e-01	-2.99140e-03	
216	5.159134e-08	8.775796e-01	9.224204e-01	2.817099e-03	
217	5.182016e-08	8.775910e-01	9.224090e-01	-2.70141e-03	
218	5.208305e-08	8.776042e-01	9.223958e-01	2.652972e-03	
219	5.255601e-08	8.776278e-01	9.223722e-01	-2.59258e-03	
220	5.327004e-08	8.776635e-01	9.223365e-01	2.589746e-03	
221	5.427004e-08	8.777135e-01	9.222865e-01	-2.55151e-03	
222	5.527004e-08	8.777635e-01	9.222365e-01	2.555441e-03	
223	5.606000e-08	8.778030e-01	9.221970e-01	-2.51416e-03	
224	5.606600e-08	8.778033e-01	9.221967e-01	-6.20876e-04	
225	5.607800e-08	8.778039e-01	9.221961e-01	-1.05475e-03	
226	5.610200e-08	8.778051e-01	9.221949e-01	-7.25639e-04	
227	5.612000e-08	8.778060e-01	9.221940e-01	1.768439e-03	
228	5.612480e-08	8.778062e-01	9.221938e-01	2.774977e-03	

Index   time            inp             inn             outp            
--------------------------------------------------------------------------------
229	5.613440e-08	8.778067e-01	9.221933e-01	2.366084e-03	
230	5.615360e-08	8.778077e-01	9.221923e-01	1.685513e-04	
231	5.619200e-08	8.778096e-01	9.221904e-01	6.601524e-05	
232	5.623122e-08	8.778116e-01	9.221884e-01	-1.31552e-03	
233	5.627391e-08	8.778137e-01	9.221863e-01	-1.07791e-04	
234	5.634198e-08	8.778171e-01	9.221829e-01	2.905661e-04	
235	5.640927e-08	8.778205e-01	9.221795e-01	-1.32781e-04	
236	5.654386e-08	8.778272e-01	9.221728e-01	1.412053e-04	
237	5.681302e-08	8.778407e-01	9.221593e-01	-1.26611e-04	
238	5.735134e-08	8.778676e-01	9.221324e-01	1.366247e-04	
239	5.835134e-08	8.779176e-01	9.220824e-01	-1.25506e-04	
240	5.935134e-08	8.779676e-01	9.220324e-01	1.354237e-04	
241	6.035134e-08	8.780176e-01	9.219824e-01	-1.24468e-04	
242	6.100000e-08	8.780500e-01	9.219500e-01	1.340537e-04	
243	6.100600e-08	8.780503e-01	9.219497e-01	2.747177e-03	
244	6.101800e-08	8.780509e-01	9.219491e-01	2.586999e-03	
245	6.104200e-08	8.780521e-01	9.219479e-01	1.328100e-03	
246	6.106000e-08	8.780530e-01	9.219470e-01	-2.51475e-03	
247	6.106480e-08	8.780532e-01	9.219468e-01	-4.46997e-03	
248	6.107440e-08	8.780537e-01	9.219463e-01	-5.63352e-03	
249	6.109360e-08	8.780547e-01	9.219453e-01	-6.12944e-03	
250	6.113200e-08	8.780566e-01	9.219434e-01	1.538723e-03	
251	6.120880e-08	8.780604e-01	9.219396e-01	8.830038e-03	
252	6.129130e-08	8.780646e-01	9.219354e-01	-3.68111e-03	
253	6.137448e-08	8.780687e-01	9.219313e-01	3.448629e-03	
254	6.147751e-08	8.780739e-01	9.219261e-01	-3.12140e-03	
255	6.159198e-08	8.780796e-01	9.219204e-01	2.941156e-03	
256	6.182093e-08	8.780910e-01	9.219090e-01	-2.82092e-03	
257	6.208277e-08	8.781041e-01	9.218959e-01	2.770463e-03	
258	6.255404e-08	8.781277e-01	9.218723e-01	-2.70755e-03	
259	6.326320e-08	8.781632e-01	9.218368e-01	2.704465e-03	
260	6.426320e-08	8.782132e-01	9.217868e-01	-2.66474e-03	
261	6.526320e-08	8.782632e-01	9.217368e-01	2.668825e-03	
262	6.606000e-08	8.783030e-01	9.216970e-01	-2.62614e-03	
263	6.606600e-08	8.783033e-01	9.216967e-01	-6.39648e-04	
264	6.607800e-08	8.783039e-01	9.216961e-01	-1.04321e-03	
265	6.610200e-08	8.783051e-01	9.216949e-01	-7.35703e-04	
266	6.612000e-08	8.783060e-01	9.216940e-01	1.776318e-03	
267	6.612480e-08	8.783062e-01	9.216938e-01	2.776949e-03	
268	6.613440e-08	8.783067e-01	9.216933e-01	2.366328e-03	
269	6.615360e-08	8.783077e-01	9.216923e-01	1.685291e-04	
270	6.619200e-08	8.783096e-01	9.216904e-01	6.411573e-05	
271	6.623121e-08	8.783116e-01	9.216884e-01	-1.31489e-03	
272	6.627389e-08	8.783137e-01	9.216863e-01	-1.07574e-04	
273	6.634198e-08	8.783171e-01	9.216829e-01	2.904187e-04	
274	6.640927e-08	8.783205e-01	9.216795e-01	-1.32484e-04	
275	6.654384e-08	8.783272e-01	9.216728e-01	1.409179e-04	
276	6.681298e-08	8.783406e-01	9.216594e-01	-1.26315e-04	
277	6.735127e-08	8.783676e-01	9.216324e-01	1.363348e-04	
278	6.835127e-08	8.784176e-01	9.215824e-01	-1.25216e-04	
279	6.935127e-08	8.784676e-01	9.215324e-01	1.351353e-04	
280	7.035127e-08	8.785176e-01	9.214824e-01	-1.24181e-04	
281	7.100000e-08	8.785500e-01	9.214500e-01	1.337683e-04	
282	7.100600e-08	8.785503e-01	9.214497e-01	2.747190e-03	
283	7.101800e-08	8.785509e-01	9.214491e-01	2.587004e-03	
284	7.104200e-08	8.785521e-01	9.214479e-01	1.327562e-03	
285	7.106000e-08	8.785530e-01	9.214470e-01	-2.54103e-03	
286	7.106480e-08	8.785532e-01	9.214468e-01	-4.50306e-03	

Index   time            inp             inn             outp            
--------------------------------------------------------------------------------
287	7.107440e-08	8.785537e-01	9.214463e-01	-5.67516e-03	
288	7.109360e-08	8.785547e-01	9.214453e-01	-6.17884e-03	
289	7.113200e-08	8.785566e-01	9.214434e-01	1.629101e-03	
290	7.120880e-08	8.785604e-01	9.214396e-01	9.151882e-03	
291	7.129183e-08	8.785646e-01	9.214354e-01	-3.83961e-03	
292	7.137502e-08	8.785688e-01	9.214312e-01	3.594702e-03	
293	7.147814e-08	8.785739e-01	9.214261e-01	-3.25467e-03	
294	7.159270e-08	8.785796e-01	9.214204e-01	3.068438e-03	
295	7.182182e-08	8.785911e-01	9.214089e-01	-2.94351e-03	
296	7.208274e-08	8.786041e-01	9.213959e-01	2.891038e-03	
297	7.255247e-08	8.786276e-01	9.213724e-01	-2.82549e-03	
298	7.325712e-08	8.786629e-01	9.213371e-01	2.822199e-03	
299	7.425712e-08	8.787129e-01	9.212871e-01	-2.78092e-03	
300	7.525712e-08	8.787629e-01	9.212371e-01	2.785186e-03	
301	7.606000e-08	8.788030e-01	9.211970e-01	-2.74101e-03	
302	7.606600e-08	8.788033e-01	9.211967e-01	-6.58917e-04	
303	7.607800e-08	8.788039e-01	9.211961e-01	-1.03135e-03	
304	7.610200e-08	8.788051e-01	9.211949e-01	-7.46037e-04	
305	7.612000e-08	8.788060e-01	9.211940e-01	1.784399e-03	
306	7.612480e-08	8.788062e-01	9.211938e-01	2.778966e-03	
307	7.613440e-08	8.788067e-01	9.211933e-01	2.366550e-03	
308	7.615360e-08	8.788077e-01	9.211923e-01	1.685198e-04	
309	7.619200e-08	8.788096e-01	9.211904e-01	6.218793e-05	
310	7.623120e-08	8.788116e-01	9.211884e-01	-1.31424e-03	
311	7.627387e-08	8.788137e-01	9.211863e-01	-1.07353e-04	
